
T28B0 000:330 SEGGER J-Link V5.10h Log File (0001ms, 0294ms total)
T28B0 000:330 DLL Compiled: Jan 21 2016 19:24:29 (0001ms, 0294ms total)
T28B0 000:330 Logging started @ 2019-04-12 17:24 (0001ms, 0294ms total)
T28B0 000:331 JLINK_SetWarnOutHandler(...) (0000ms, 0294ms total)
T28B0 000:331 JLINK_OpenEx(...)
Firmware: J-Link V9 compiled Jun  2 2222 22:22:22
Hardware: V9.40
S/N: 59401308
Feature(s): GDB, RDI, FlashBP, FlashDL, JFlash, RDDI  returns O.K. (0291ms, 0585ms total)
T28B0 000:622 JLINK_SetErrorOutHandler(...) (0000ms, 0585ms total)
T28B0 000:622 JLINK_ExecCommand("ProjectFile = "D:\BaiduNetdiskDownload\WORK\ZHDT-JFV1.0\ZHDT_JF\Project\JLinkSettings.ini"", ...)  returns 0x00 (0001ms, 0586ms total)
T28B0 000:629 JLINK_ExecCommand("Device = STM32F103C8", ...)Device "STM32F103C8" selected.  returns 0x00 (0003ms, 0589ms total)
T28B0 000:632 JLINK_ExecCommand("DisableConnectionTimeout", ...)  returns 0x01 (0000ms, 0589ms total)
T28B0 000:632 JLINK_GetHardwareVersion()  returns 0x16F30 (0001ms, 0590ms total)
T28B0 000:633 JLINK_GetDLLVersion()  returns 51008 (0000ms, 0590ms total)
T28B0 000:633 JLINK_GetFirmwareString(...) (0000ms, 0590ms total)
T28B0 000:665 JLINK_GetDLLVersion()  returns 51008 (0000ms, 0590ms total)
T28B0 000:665 JLINK_GetCompileDateTime() (0000ms, 0590ms total)
T28B0 000:670 JLINK_GetFirmwareString(...) (0000ms, 0590ms total)
T28B0 000:673 JLINK_GetHardwareVersion()  returns 0x16F30 (0001ms, 0591ms total)
T28B0 000:694 JLINK_TIF_Select(JLINKARM_TIF_SWD)  returns 0x00 (0001ms, 0592ms total)
T28B0 000:695 JLINK_SetSpeed(5000) (0000ms, 0592ms total)
T28B0 000:695 JLINK_GetId() >0x108 TIF>Found SWD-DP with ID 0x1BA01477 >0x0D TIF> >0x28 TIF> >0x0D TIF> >0x28 TIF> >0x0D TIF> >0x28 TIF> >0x0D TIF> >0x28 TIF> >0x0D TIF> >0x21 TIF> >0x0D TIF> >0x28 TIF> >0x0D TIF> >0x28 TIF> >0x0D TIF> >0x28 TIF> >0x0D TIF> >0x21 TIF> >0x0D TIF> >0x21 TIF> >0x0D TIF> >0x28 TIF> >0x0D TIF> >0x21 TIF> >0x0D TIF> >0x21 TIF> >0x0D TIF> >0x28 TIF> >0x0D TIF> >0x21 TIF> >0x0D TIF> >0x21 TIF> >0x0D TIF> >0x28 TIF> >0x0D TIF> >0x21 TIF> >0x0D TIF> >0x21 TIF> >0x108 TIF>
Found SWD-DP with ID 0x1BA01477 >0x0D TIF> >0x28 TIF> >0x0D TIF> >0x28 TIF> >0x0D TIF> >0x28 TIF> >0x0D TIF> >0x28 TIF> >0x0D TIF> >0x21 TIF> >0x0D TIF> >0x28 TIF> >0x0D TIF> >0x28 TIF> >0x0D TIF> >0x21 TIF> >0x0D TIF> >0x21 TIF> >0x0D TIF> >0x21 TIF> >0x0D TIF> >0x28 TIF> >0x0D TIF> >0x28 TIF> >0x0D TIF> >0x28 TIF> >0x0D TIF> >0x21 TIF> >0x0D TIF> >0x21 TIF> >0x0D TIF> >0x28 TIF> >0x0D TIF> >0x21 TIF> >0x0D TIF> >0x21 TIF>Found Cortex-M3 r1p1, Little endian. -- CPU_ReadMem(4 bytes @ 0xE000EDF0)
 -- CPU_ReadMem(4 bytes @ 0xE0002000)FPUnit: 6 code (BP) slots and 2 literal slots -- CPU_ReadMem(4 bytes @ 0xE000EDFC) -- CPU_ReadMem(4 bytes @ 0xE0001000) -- CPU_WriteMem(4 bytes @ 0xE0001000) -- CPU_ReadMem(4 bytes @ 0xE000ED88) -- CPU_WriteMem(4 bytes @ 0xE000ED88) -- CPU_ReadMem(4 bytes @ 0xE000ED88) -- CPU_WriteMem(4 bytes @ 0xE000ED88)CoreSight components:ROMTbl 0 @ E00FF000 -- CPU_ReadMem(16 bytes @ 0xE00FF000) -- CPU_ReadMem(16 bytes @ 0xE000EFF0) -- CPU_ReadMem(16 bytes @ 0xE000EFE0)
ROMTbl 0 [0]: FFF0F000, CID: B105E00D, PID: 001BB000 SCS -- CPU_ReadMem(16 bytes @ 0xE0001FF0) -- CPU_ReadMem(16 bytes @ 0xE0001FE0)ROMTbl 0 [1]: FFF02000, CID: B105E00D, PID: 001BB002 DWT -- CPU_ReadMem(16 bytes @ 0xE0002FF0) -- CPU_ReadMem(16 bytes @ 0xE0002FE0)ROMTbl 0 [2]: FFF03000, CID: B105E00D, PID: 000BB003 FPB -- CPU_ReadMem(16 bytes @ 0xE0000FF0) -- CPU_ReadMem(16 bytes @ 0xE0000FE0)ROMTbl 0 [3]: FFF01000, CID: B105E00D, PID: 001BB001 ITM -- CPU_ReadMem(16 bytes @ 0xE00FF010)
 -- CPU_ReadMem(16 bytes @ 0xE0040FF0) -- CPU_ReadMem(16 bytes @ 0xE0040FE0)ROMTbl 0 [4]: FFF41000, CID: B105900D, PID: 001BB923 TPIU-Lite >0x0D TIF> >0x21 TIF>  returns 0x1BA01477 (0090ms, 0682ms total)
T28B0 000:785 JLINK_GetDLLVersion()  returns 51008 (0000ms, 0682ms total)
T28B0 000:785 JLINK_CORE_GetFound()  returns 0x30000FF (0000ms, 0682ms total)
T28B0 000:785 JLINK_GetDebugInfo(0x100) -- Value=0xE00FF000  returns 0x00 (0000ms, 0682ms total)
T28B0 000:788 JLINK_GetDebugInfo(0x100) -- Value=0xE00FF000  returns 0x00 (0001ms, 0683ms total)
T28B0 000:789 JLINK_GetDebugInfo(0x101) -- Value=0x00000000  returns 0x00 (0000ms, 0683ms total)
T28B0 000:789 JLINK_ReadMem (0xE0041FF0, 0x0010 Bytes, ...) -- CPU is running -- CPU_ReadMem(16 bytes @ 0xE0041FF0) - Data: 00 00 00 00 00 00 00 00 00 00 00 00 00 00 00 00  returns 0x00 (0000ms, 0683ms total)
T28B0 000:789 JLINK_GetDebugInfo(0x102) -- Value=0x00000000  returns 0x00 (0002ms, 0685ms total)
T28B0 000:791 JLINK_GetDebugInfo(0x103) -- Value=0xE0040000  returns 0x00 (0000ms, 0685ms total)
T28B0 000:791 JLINK_GetDebugInfo(0x104) -- Value=0xE0000000  returns 0x00 (0000ms, 0685ms total)
T28B0 000:791 JLINK_GetDebugInfo(0x105) -- Value=0xE0001000  returns 0x00 (0000ms, 0685ms total)
T28B0 000:791 JLINK_GetDebugInfo(0x106) -- Value=0xE0002000  returns 0x00 (0000ms, 0685ms total)
T28B0 000:791 JLINK_GetDebugInfo(0x107) -- Value=0xE000E000  returns 0x00 (0000ms, 0685ms total)
T28B0 000:791 JLINK_GetDebugInfo(0x10C) -- Value=0xE000EDF0  returns 0x00 (0000ms, 0685ms total)
T28B0 000:791 JLINK_ReadMemU32(0xE000ED00, 0x0001 Items, ...) -- CPU is running -- CPU_ReadMem(4 bytes @ 0xE000ED00) - Data: 31 C2 1F 41  returns 0x01 (0000ms, 0685ms total)
T28B0 000:791 JLINK_SetResetType(JLINKARM_RESET_TYPE_NORMAL)  returns JLINKARM_RESET_TYPE_NORMAL (0000ms, 0685ms total)
T28B0 000:791 JLINK_Reset() -- CPU is running -- CPU_WriteMem(4 bytes @ 0xE000EDF0) -- CPU is running -- CPU_WriteMem(4 bytes @ 0xE000EDFC) >0x35 TIF> -- CPU is running -- CPU_WriteMem(4 bytes @ 0xE000ED0C) -- CPU is running -- CPU_ReadMem(4 bytes @ 0xE000EDF0) -- CPU is running -- CPU_ReadMem(4 bytes @ 0xE000EDF0) -- CPU is running -- CPU_WriteMem(4 bytes @ 0xE000EDF0) -- CPU is running -- CPU_WriteMem(4 bytes @ 0xE000EDFC) -- CPU is running -- CPU_ReadMem(4 bytes @ 0xE000EDF0)
 -- CPU_WriteMem(4 bytes @ 0xE0002000) -- CPU_ReadMem(4 bytes @ 0xE000EDFC) -- CPU_ReadMem(4 bytes @ 0xE0001000) (0016ms, 0701ms total)
T28B0 000:807 JLINK_Halt()  returns 0x00 (0000ms, 0701ms total)
T28B0 000:807 JLINK_IsHalted()  returns TRUE (0000ms, 0701ms total)
T28B0 000:807 JLINK_ReadMemU32(0xE000EDF0, 0x0001 Items, ...) -- CPU_ReadMem(4 bytes @ 0xE000EDF0) - Data: 03 00 03 00  returns 0x01 (0000ms, 0701ms total)
T28B0 000:807 JLINK_WriteU32(0xE000EDF0, 0xA05F0003) -- CPU_WriteMem(4 bytes @ 0xE000EDF0)  returns 0x00 (0001ms, 0702ms total)
T28B0 000:808 JLINK_WriteU32(0xE000EDFC, 0x01000000) -- CPU_WriteMem(4 bytes @ 0xE000EDFC)  returns 0x00 (0000ms, 0702ms total)
T28B0 000:833 JLINK_GetHWStatus(...)  returns 0x00 (0001ms, 0703ms total)
T28B0 000:852 JLINK_GetNumBPUnits(Type = 0xFFFFFF00)  returns 0x06 (0000ms, 0703ms total)
T28B0 000:852 JLINK_GetNumBPUnits(Type = 0xF0)  returns 0x2000 (0001ms, 0704ms total)
T28B0 000:853 JLINK_GetNumWPUnits()  returns 0x04 (0000ms, 0704ms total)
T28B0 000:873 JLINK_GetSpeed()  returns 0xFA0 (0000ms, 0704ms total)
T28B0 000:882 JLINK_ReadMemU32(0xE000E004, 0x0001 Items, ...) -- CPU_ReadMem(4 bytes @ 0xE000E004) - Data: 01 00 00 00  returns 0x01 (0000ms, 0704ms total)
T28B0 000:883 JLINK_ReadMemU32(0xE000E004, 0x0001 Items, ...) -- CPU_ReadMem(4 bytes @ 0xE000E004) - Data: 01 00 00 00  returns 0x01 (0000ms, 0705ms total)
T28B0 000:883 JLINK_WriteMem(0xE0001000, 0x001C Bytes, ...) - Data: 01 00 00 00 00 00 00 00 00 00 00 00 00 00 00 00 ... -- CPU_WriteMem(28 bytes @ 0xE0001000)  returns 0x1C (0001ms, 0706ms total)
T28B0 000:884 JLINK_ReadMem (0xE0001000, 0x001C Bytes, ...) -- CPU_ReadMem(28 bytes @ 0xE0001000) - Data: 01 00 00 40 00 00 00 00 00 00 00 00 00 00 00 00 ...  returns 0x00 (0000ms, 0706ms total)
T28B0 000:884 JLINK_Halt()  returns 0x00 (0000ms, 0706ms total)
T28B0 000:885 JLINK_IsHalted()  returns TRUE (0000ms, 0707ms total)
T28B0 000:887 JLINK_WriteMem(0x20000000, 0x0164 Bytes, ...) - Data: 00 BE 0A E0 0D 78 2D 06 68 40 08 24 40 00 00 D3 ... -- CPU_WriteMem(356 bytes @ 0x20000000)  returns 0x164 (0003ms, 0710ms total)
T28B0 000:890 JLINK_WriteReg(R0, 0x08000000)  returns 0x00 (0000ms, 0710ms total)
T28B0 000:890 JLINK_WriteReg(R1, 0x007A1200)  returns 0x00 (0000ms, 0710ms total)
T28B0 000:890 JLINK_WriteReg(R2, 0x00000001)  returns 0x00 (0000ms, 0710ms total)
T28B0 000:890 JLINK_WriteReg(R3, 0x00000000)  returns 0x00 (0000ms, 0710ms total)
T28B0 000:890 JLINK_WriteReg(R4, 0x00000000)  returns 0x00 (0000ms, 0710ms total)
T28B0 000:890 JLINK_WriteReg(R5, 0x00000000)  returns 0x00 (0001ms, 0711ms total)
T28B0 000:891 JLINK_WriteReg(R6, 0x00000000)  returns 0x00 (0000ms, 0711ms total)
T28B0 000:891 JLINK_WriteReg(R7, 0x00000000)  returns 0x00 (0000ms, 0711ms total)
T28B0 000:891 JLINK_WriteReg(R8, 0x00000000)  returns 0x00 (0000ms, 0711ms total)
T28B0 000:891 JLINK_WriteReg(R9, 0x20000160)  returns 0x00 (0000ms, 0711ms total)
T28B0 000:891 JLINK_WriteReg(R10, 0x00000000)  returns 0x00 (0000ms, 0711ms total)
T28B0 000:891 JLINK_WriteReg(R11, 0x00000000)  returns 0x00 (0000ms, 0711ms total)
T28B0 000:891 JLINK_WriteReg(R12, 0x00000000)  returns 0x00 (0001ms, 0712ms total)
T28B0 000:892 JLINK_WriteReg(R13 (SP), 0x20001000)  returns 0x00 (0000ms, 0712ms total)
T28B0 000:892 JLINK_WriteReg(R14, 0x20000001)  returns 0x00 (0000ms, 0712ms total)
T28B0 000:892 JLINK_WriteReg(R15 (PC), 0x20000038)  returns 0x00 (0000ms, 0712ms total)
T28B0 000:892 JLINK_WriteReg(XPSR, 0x01000000)  returns 0x00 (0000ms, 0712ms total)
T28B0 000:892 JLINK_WriteReg(MSP, 0x20001000)  returns 0x00 (0000ms, 0712ms total)
T28B0 000:892 JLINK_WriteReg(PSP, 0x20001000)  returns 0x00 (0000ms, 0712ms total)
T28B0 000:892 JLINK_WriteReg(CFBP, 0x00000000)  returns 0x00 (0001ms, 0713ms total)
T28B0 000:893 JLINK_SetBPEx(Addr = 0x20000000, Type = 0xFFFFFFF2) -- CPU_ReadMem(2 bytes @ 0x20000000)  returns 0x00000001 (0000ms, 0713ms total)
T28B0 000:893 JLINK_Go() -- CPU_WriteMem(2 bytes @ 0x20000000) -- CPU_ReadMem(4 bytes @ 0xE0001000) -- CPU_WriteMem(4 bytes @ 0xE0002008) -- CPU_WriteMem(4 bytes @ 0xE000200C) -- CPU_WriteMem(4 bytes @ 0xE0002010) -- CPU_WriteMem(4 bytes @ 0xE0002014) -- CPU_WriteMem(4 bytes @ 0xE0002018) -- CPU_WriteMem(4 bytes @ 0xE000201C) -- CPU_WriteMem(4 bytes @ 0xE0001004) (0003ms, 0716ms total)
T28B0 000:896 JLINK_IsHalted() -- CPU_ReadMem(2 bytes @ 0x20000000)  returns TRUE (0002ms, 0718ms total)
T28B0 000:898 JLINK_ReadReg(R15 (PC))  returns 0x20000000 (0000ms, 0716ms total)
T28B0 000:899 JLINK_ClrBPEx(BPHandle = 0x00000001)  returns 0x00 (0000ms, 0717ms total)
T28B0 000:899 JLINK_ReadReg(R0)  returns 0x00000000 (0000ms, 0717ms total)
T28B0 000:900 JLINK_WriteReg(R0, 0x08000000)  returns 0x00 (0000ms, 0717ms total)
T28B0 000:900 JLINK_WriteReg(R1, 0x007A1200)  returns 0x00 (0000ms, 0717ms total)
T28B0 000:900 JLINK_WriteReg(R2, 0x00000001)  returns 0x00 (0000ms, 0717ms total)
T28B0 000:900 JLINK_WriteReg(R3, 0x00000000)  returns 0x00 (0000ms, 0717ms total)
T28B0 000:900 JLINK_WriteReg(R4, 0x00000000)  returns 0x00 (0000ms, 0717ms total)
T28B0 000:900 JLINK_WriteReg(R5, 0x00000000)  returns 0x00 (0001ms, 0718ms total)
T28B0 000:901 JLINK_WriteReg(R6, 0x00000000)  returns 0x00 (0000ms, 0718ms total)
T28B0 000:901 JLINK_WriteReg(R7, 0x00000000)  returns 0x00 (0000ms, 0718ms total)
T28B0 000:901 JLINK_WriteReg(R8, 0x00000000)  returns 0x00 (0000ms, 0718ms total)
T28B0 000:901 JLINK_WriteReg(R9, 0x20000160)  returns 0x00 (0000ms, 0718ms total)
T28B0 000:901 JLINK_WriteReg(R10, 0x00000000)  returns 0x00 (0000ms, 0718ms total)
T28B0 000:901 JLINK_WriteReg(R11, 0x00000000)  returns 0x00 (0000ms, 0718ms total)
T28B0 000:901 JLINK_WriteReg(R12, 0x00000000)  returns 0x00 (0001ms, 0719ms total)
T28B0 000:902 JLINK_WriteReg(R13 (SP), 0x20001000)  returns 0x00 (0000ms, 0719ms total)
T28B0 000:902 JLINK_WriteReg(R14, 0x20000001)  returns 0x00 (0000ms, 0719ms total)
T28B0 000:902 JLINK_WriteReg(R15 (PC), 0x2000007C)  returns 0x00 (0000ms, 0719ms total)
T28B0 000:902 JLINK_WriteReg(XPSR, 0x01000000)  returns 0x00 (0000ms, 0719ms total)
T28B0 000:902 JLINK_WriteReg(MSP, 0x20001000)  returns 0x00 (0000ms, 0719ms total)
T28B0 000:902 JLINK_WriteReg(PSP, 0x20001000)  returns 0x00 (0001ms, 0720ms total)
T28B0 000:903 JLINK_WriteReg(CFBP, 0x00000000)  returns 0x00 (0000ms, 0720ms total)
T28B0 000:903 JLINK_SetBPEx(Addr = 0x20000000, Type = 0xFFFFFFF2)  returns 0x00000002 (0000ms, 0720ms total)
T28B0 000:903 JLINK_Go() -- CPU_ReadMem(4 bytes @ 0xE0001000) (0001ms, 0721ms total)
T28B0 000:904 JLINK_IsHalted()  returns FALSE (0000ms, 0721ms total)
T28B0 000:999 JLINK_IsHalted() -- CPU_ReadMem(2 bytes @ 0x20000000)  returns TRUE (0002ms, 0723ms total)
T28B0 001:001 JLINK_ReadReg(R15 (PC))  returns 0x20000000 (0000ms, 0721ms total)
T28B0 001:001 JLINK_ClrBPEx(BPHandle = 0x00000002)  returns 0x00 (0000ms, 0721ms total)
T28B0 001:001 JLINK_ReadReg(R0)  returns 0x00000000 (0000ms, 0721ms total)
T28B0 001:055 JLINK_WriteReg(R0, 0x00000001)  returns 0x00 (0001ms, 0722ms total)
T28B0 001:056 JLINK_WriteReg(R1, 0x007A1200)  returns 0x00 (0000ms, 0722ms total)
T28B0 001:056 JLINK_WriteReg(R2, 0x00000001)  returns 0x00 (0001ms, 0723ms total)
T28B0 001:057 JLINK_WriteReg(R3, 0x00000000)  returns 0x00 (0001ms, 0724ms total)
T28B0 001:058 JLINK_WriteReg(R4, 0x00000000)  returns 0x00 (0000ms, 0724ms total)
T28B0 001:058 JLINK_WriteReg(R5, 0x00000000)  returns 0x00 (0001ms, 0725ms total)
T28B0 001:059 JLINK_WriteReg(R6, 0x00000000)  returns 0x00 (0000ms, 0725ms total)
T28B0 001:060 JLINK_WriteReg(R7, 0x00000000)  returns 0x00 (0000ms, 0726ms total)
T28B0 001:060 JLINK_WriteReg(R8, 0x00000000)  returns 0x00 (0001ms, 0727ms total)
T28B0 001:061 JLINK_WriteReg(R9, 0x20000160)  returns 0x00 (0000ms, 0727ms total)
T28B0 001:061 JLINK_WriteReg(R10, 0x00000000)  returns 0x00 (0001ms, 0728ms total)
T28B0 001:062 JLINK_WriteReg(R11, 0x00000000)  returns 0x00 (0001ms, 0729ms total)
T28B0 001:063 JLINK_WriteReg(R12, 0x00000000)  returns 0x00 (0000ms, 0729ms total)
T28B0 001:063 JLINK_WriteReg(R13 (SP), 0x20001000)  returns 0x00 (0001ms, 0730ms total)
T28B0 001:064 JLINK_WriteReg(R14, 0x20000001)  returns 0x00 (0000ms, 0730ms total)
T28B0 001:064 JLINK_WriteReg(R15 (PC), 0x2000006A)  returns 0x00 (0001ms, 0731ms total)
T28B0 001:065 JLINK_WriteReg(XPSR, 0x01000000)  returns 0x00 (0001ms, 0732ms total)
T28B0 001:066 JLINK_WriteReg(MSP, 0x20001000)  returns 0x00 (0000ms, 0732ms total)
T28B0 001:066 JLINK_WriteReg(PSP, 0x20001000)  returns 0x00 (0001ms, 0733ms total)
T28B0 001:067 JLINK_WriteReg(CFBP, 0x00000000)  returns 0x00 (0000ms, 0733ms total)
T28B0 001:068 JLINK_SetBPEx(Addr = 0x20000000, Type = 0xFFFFFFF2)  returns 0x00000003 (0000ms, 0734ms total)
T28B0 001:068 JLINK_Go() -- CPU_ReadMem(4 bytes @ 0xE0001000) (0002ms, 0736ms total)
T28B0 001:070 JLINK_IsHalted() -- CPU_ReadMem(2 bytes @ 0x20000000)  returns TRUE (0003ms, 0739ms total)
T28B0 001:073 JLINK_ReadReg(R15 (PC))  returns 0x20000000 (0000ms, 0736ms total)
T28B0 001:073 JLINK_ClrBPEx(BPHandle = 0x00000003)  returns 0x00 (0001ms, 0737ms total)
T28B0 001:074 JLINK_ReadReg(R0)  returns 0x00000000 (0000ms, 0737ms total)
T28B0 001:081 JLINK_WriteMem(0x20000000, 0x0164 Bytes, ...) - Data: 00 BE 0A E0 0D 78 2D 06 68 40 08 24 40 00 00 D3 ... -- CPU_WriteMem(356 bytes @ 0x20000000)  returns 0x164 (0002ms, 0739ms total)
T28B0 001:083 JLINK_WriteReg(R0, 0x08000000)  returns 0x00 (0000ms, 0739ms total)
T28B0 001:083 JLINK_WriteReg(R1, 0x007A1200)  returns 0x00 (0000ms, 0739ms total)
T28B0 001:083 JLINK_WriteReg(R2, 0x00000002)  returns 0x00 (0001ms, 0740ms total)
T28B0 001:084 JLINK_WriteReg(R3, 0x00000000)  returns 0x00 (0000ms, 0740ms total)
T28B0 001:084 JLINK_WriteReg(R4, 0x00000000)  returns 0x00 (0000ms, 0740ms total)
T28B0 001:084 JLINK_WriteReg(R5, 0x00000000)  returns 0x00 (0000ms, 0740ms total)
T28B0 001:084 JLINK_WriteReg(R6, 0x00000000)  returns 0x00 (0000ms, 0740ms total)
T28B0 001:084 JLINK_WriteReg(R7, 0x00000000)  returns 0x00 (0000ms, 0740ms total)
T28B0 001:084 JLINK_WriteReg(R8, 0x00000000)  returns 0x00 (0000ms, 0740ms total)
T28B0 001:084 JLINK_WriteReg(R9, 0x20000160)  returns 0x00 (0001ms, 0741ms total)
T28B0 001:085 JLINK_WriteReg(R10, 0x00000000)  returns 0x00 (0000ms, 0741ms total)
T28B0 001:085 JLINK_WriteReg(R11, 0x00000000)  returns 0x00 (0000ms, 0741ms total)
T28B0 001:085 JLINK_WriteReg(R12, 0x00000000)  returns 0x00 (0000ms, 0741ms total)
T28B0 001:085 JLINK_WriteReg(R13 (SP), 0x20001000)  returns 0x00 (0000ms, 0741ms total)
T28B0 001:085 JLINK_WriteReg(R14, 0x20000001)  returns 0x00 (0000ms, 0741ms total)
T28B0 001:085 JLINK_WriteReg(R15 (PC), 0x20000038)  returns 0x00 (0000ms, 0741ms total)
T28B0 001:085 JLINK_WriteReg(XPSR, 0x01000000)  returns 0x00 (0001ms, 0742ms total)
T28B0 001:086 JLINK_WriteReg(MSP, 0x20001000)  returns 0x00 (0000ms, 0742ms total)
T28B0 001:086 JLINK_WriteReg(PSP, 0x20001000)  returns 0x00 (0000ms, 0742ms total)
T28B0 001:086 JLINK_WriteReg(CFBP, 0x00000000)  returns 0x00 (0000ms, 0742ms total)
T28B0 001:086 JLINK_SetBPEx(Addr = 0x20000000, Type = 0xFFFFFFF2) -- CPU_ReadMem(2 bytes @ 0x20000000)  returns 0x00000004 (0000ms, 0742ms total)
T28B0 001:086 JLINK_Go() -- CPU_WriteMem(2 bytes @ 0x20000000) -- CPU_ReadMem(4 bytes @ 0xE0001000) (0002ms, 0744ms total)
T28B0 001:088 JLINK_IsHalted() -- CPU_ReadMem(2 bytes @ 0x20000000)  returns TRUE (0002ms, 0746ms total)
T28B0 001:090 JLINK_ReadReg(R15 (PC))  returns 0x20000000 (0000ms, 0744ms total)
T28B0 001:090 JLINK_ClrBPEx(BPHandle = 0x00000004)  returns 0x00 (0000ms, 0744ms total)
T28B0 001:090 JLINK_ReadReg(R0)  returns 0x00000000 (0000ms, 0744ms total)
T28B0 001:091 JLINK_WriteMem(0x20000164, 0x0400 Bytes, ...) - Data: 48 1B 00 20 01 01 00 08 6D 2D 00 08 A1 1F 00 08 ... -- CPU_WriteMem(1024 bytes @ 0x20000164)  returns 0x400 (0004ms, 0748ms total)
T28B0 001:095 JLINK_WriteReg(R0, 0x08000000)  returns 0x00 (0000ms, 0748ms total)
T28B0 001:095 JLINK_WriteReg(R1, 0x00000400)  returns 0x00 (0000ms, 0748ms total)
T28B0 001:095 JLINK_WriteReg(R2, 0x20000164)  returns 0x00 (0000ms, 0748ms total)
T28B0 001:095 JLINK_WriteReg(R3, 0x00000000)  returns 0x00 (0000ms, 0748ms total)
T28B0 001:095 JLINK_WriteReg(R4, 0x00000000)  returns 0x00 (0001ms, 0749ms total)
T28B0 001:096 JLINK_WriteReg(R5, 0x00000000)  returns 0x00 (0000ms, 0749ms total)
T28B0 001:096 JLINK_WriteReg(R6, 0x00000000)  returns 0x00 (0000ms, 0749ms total)
T28B0 001:096 JLINK_WriteReg(R7, 0x00000000)  returns 0x00 (0000ms, 0749ms total)
T28B0 001:096 JLINK_WriteReg(R8, 0x00000000)  returns 0x00 (0000ms, 0749ms total)
T28B0 001:096 JLINK_WriteReg(R9, 0x20000160)  returns 0x00 (0000ms, 0749ms total)
T28B0 001:096 JLINK_WriteReg(R10, 0x00000000)  returns 0x00 (0000ms, 0749ms total)
T28B0 001:096 JLINK_WriteReg(R11, 0x00000000)  returns 0x00 (0001ms, 0750ms total)
T28B0 001:097 JLINK_WriteReg(R12, 0x00000000)  returns 0x00 (0000ms, 0750ms total)
T28B0 001:097 JLINK_WriteReg(R13 (SP), 0x20001000)  returns 0x00 (0000ms, 0750ms total)
T28B0 001:097 JLINK_WriteReg(R14, 0x20000001)  returns 0x00 (0000ms, 0750ms total)
T28B0 001:097 JLINK_WriteReg(R15 (PC), 0x200000F4)  returns 0x00 (0000ms, 0750ms total)
T28B0 001:097 JLINK_WriteReg(XPSR, 0x01000000)  returns 0x00 (0000ms, 0750ms total)
T28B0 001:097 JLINK_WriteReg(MSP, 0x20001000)  returns 0x00 (0000ms, 0750ms total)
T28B0 001:097 JLINK_WriteReg(PSP, 0x20001000)  returns 0x00 (0001ms, 0751ms total)
T28B0 001:098 JLINK_WriteReg(CFBP, 0x00000000)  returns 0x00 (0000ms, 0751ms total)
T28B0 001:098 JLINK_SetBPEx(Addr = 0x20000000, Type = 0xFFFFFFF2)  returns 0x00000005 (0000ms, 0751ms total)
T28B0 001:098 JLINK_Go() -- CPU_ReadMem(4 bytes @ 0xE0001000) (0001ms, 0752ms total)
T28B0 001:099 JLINK_IsHalted()  returns FALSE (0001ms, 0753ms total)
T28B0 001:161 JLINK_IsHalted() -- CPU_ReadMem(2 bytes @ 0x20000000)  returns TRUE (0003ms, 0755ms total)
T28B0 001:164 JLINK_ReadReg(R15 (PC))  returns 0x20000000 (0000ms, 0752ms total)
T28B0 001:164 JLINK_ClrBPEx(BPHandle = 0x00000005)  returns 0x00 (0000ms, 0752ms total)
T28B0 001:165 JLINK_ReadReg(R0)  returns 0x00000000 (0000ms, 0753ms total)
T28B0 001:166 JLINK_WriteMem(0x20000164, 0x0400 Bytes, ...) - Data: C0 F1 00 40 00 29 01 DB C1 F1 00 41 88 42 70 47 ... -- CPU_WriteMem(1024 bytes @ 0x20000164)  returns 0x400 (0004ms, 0757ms total)
T28B0 001:171 JLINK_WriteReg(R0, 0x08000400)  returns 0x00 (0000ms, 0757ms total)
T28B0 001:171 JLINK_WriteReg(R1, 0x00000400)  returns 0x00 (0000ms, 0757ms total)
T28B0 001:171 JLINK_WriteReg(R2, 0x20000164)  returns 0x00 (0001ms, 0758ms total)
T28B0 001:172 JLINK_WriteReg(R3, 0x00000000)  returns 0x00 (0000ms, 0758ms total)
T28B0 001:172 JLINK_WriteReg(R4, 0x00000000)  returns 0x00 (0001ms, 0759ms total)
T28B0 001:173 JLINK_WriteReg(R5, 0x00000000)  returns 0x00 (0000ms, 0759ms total)
T28B0 001:173 JLINK_WriteReg(R6, 0x00000000)  returns 0x00 (0001ms, 0760ms total)
T28B0 001:174 JLINK_WriteReg(R7, 0x00000000)  returns 0x00 (0000ms, 0760ms total)
T28B0 001:174 JLINK_WriteReg(R8, 0x00000000)  returns 0x00 (0001ms, 0761ms total)
T28B0 001:175 JLINK_WriteReg(R9, 0x20000160)  returns 0x00 (0000ms, 0761ms total)
T28B0 001:175 JLINK_WriteReg(R10, 0x00000000)  returns 0x00 (0000ms, 0761ms total)
T28B0 001:175 JLINK_WriteReg(R11, 0x00000000)  returns 0x00 (0001ms, 0762ms total)
T28B0 001:176 JLINK_WriteReg(R12, 0x00000000)  returns 0x00 (0000ms, 0762ms total)
T28B0 001:176 JLINK_WriteReg(R13 (SP), 0x20001000)  returns 0x00 (0000ms, 0762ms total)
T28B0 001:176 JLINK_WriteReg(R14, 0x20000001)  returns 0x00 (0001ms, 0763ms total)
T28B0 001:177 JLINK_WriteReg(R15 (PC), 0x200000F4)  returns 0x00 (0000ms, 0763ms total)
T28B0 001:177 JLINK_WriteReg(XPSR, 0x01000000)  returns 0x00 (0000ms, 0763ms total)
T28B0 001:178 JLINK_WriteReg(MSP, 0x20001000)  returns 0x00 (0000ms, 0764ms total)
T28B0 001:178 JLINK_WriteReg(PSP, 0x20001000)  returns 0x00 (0000ms, 0764ms total)
T28B0 001:178 JLINK_WriteReg(CFBP, 0x00000000)  returns 0x00 (0001ms, 0765ms total)
T28B0 001:179 JLINK_SetBPEx(Addr = 0x20000000, Type = 0xFFFFFFF2)  returns 0x00000006 (0000ms, 0765ms total)
T28B0 001:179 JLINK_Go() -- CPU_ReadMem(4 bytes @ 0xE0001000) (0001ms, 0766ms total)
T28B0 001:181 JLINK_IsHalted()  returns FALSE (0000ms, 0767ms total)
T28B0 001:248 JLINK_IsHalted() -- CPU_ReadMem(2 bytes @ 0x20000000)  returns TRUE (0002ms, 0769ms total)
T28B0 001:250 JLINK_ReadReg(R15 (PC))  returns 0x20000000 (0000ms, 0767ms total)
T28B0 001:250 JLINK_ClrBPEx(BPHandle = 0x00000006)  returns 0x00 (0000ms, 0767ms total)
T28B0 001:250 JLINK_ReadReg(R0)  returns 0x00000000 (0000ms, 0767ms total)
T28B0 001:251 JLINK_WriteMem(0x20000164, 0x0400 Bytes, ...) - Data: 05 D3 12 1B 63 EB 05 03 06 43 4C EA 01 0C 49 08 ... -- CPU_WriteMem(1024 bytes @ 0x20000164)  returns 0x400 (0004ms, 0771ms total)
T28B0 001:255 JLINK_WriteReg(R0, 0x08000800)  returns 0x00 (0000ms, 0771ms total)
T28B0 001:255 JLINK_WriteReg(R1, 0x00000400)  returns 0x00 (0000ms, 0771ms total)
T28B0 001:255 JLINK_WriteReg(R2, 0x20000164)  returns 0x00 (0000ms, 0771ms total)
T28B0 001:255 JLINK_WriteReg(R3, 0x00000000)  returns 0x00 (0000ms, 0771ms total)
T28B0 001:255 JLINK_WriteReg(R4, 0x00000000)  returns 0x00 (0001ms, 0772ms total)
T28B0 001:256 JLINK_WriteReg(R5, 0x00000000)  returns 0x00 (0000ms, 0772ms total)
T28B0 001:256 JLINK_WriteReg(R6, 0x00000000)  returns 0x00 (0000ms, 0772ms total)
T28B0 001:256 JLINK_WriteReg(R7, 0x00000000)  returns 0x00 (0000ms, 0772ms total)
T28B0 001:256 JLINK_WriteReg(R8, 0x00000000)  returns 0x00 (0000ms, 0772ms total)
T28B0 001:256 JLINK_WriteReg(R9, 0x20000160)  returns 0x00 (0000ms, 0772ms total)
T28B0 001:256 JLINK_WriteReg(R10, 0x00000000)  returns 0x00 (0000ms, 0772ms total)
T28B0 001:256 JLINK_WriteReg(R11, 0x00000000)  returns 0x00 (0001ms, 0773ms total)
T28B0 001:257 JLINK_WriteReg(R12, 0x00000000)  returns 0x00 (0000ms, 0773ms total)
T28B0 001:257 JLINK_WriteReg(R13 (SP), 0x20001000)  returns 0x00 (0000ms, 0773ms total)
T28B0 001:257 JLINK_WriteReg(R14, 0x20000001)  returns 0x00 (0000ms, 0773ms total)
T28B0 001:257 JLINK_WriteReg(R15 (PC), 0x200000F4)  returns 0x00 (0000ms, 0773ms total)
T28B0 001:257 JLINK_WriteReg(XPSR, 0x01000000)  returns 0x00 (0000ms, 0773ms total)
T28B0 001:257 JLINK_WriteReg(MSP, 0x20001000)  returns 0x00 (0000ms, 0773ms total)
T28B0 001:257 JLINK_WriteReg(PSP, 0x20001000)  returns 0x00 (0001ms, 0774ms total)
T28B0 001:258 JLINK_WriteReg(CFBP, 0x00000000)  returns 0x00 (0000ms, 0774ms total)
T28B0 001:258 JLINK_SetBPEx(Addr = 0x20000000, Type = 0xFFFFFFF2)  returns 0x00000007 (0000ms, 0774ms total)
T28B0 001:258 JLINK_Go() -- CPU_ReadMem(4 bytes @ 0xE0001000) (0001ms, 0775ms total)
T28B0 001:259 JLINK_IsHalted()  returns FALSE (0001ms, 0776ms total)
T28B0 001:325 JLINK_IsHalted() -- CPU_ReadMem(2 bytes @ 0x20000000)  returns TRUE (0002ms, 0777ms total)
T28B0 001:327 JLINK_ReadReg(R15 (PC))  returns 0x20000000 (0000ms, 0775ms total)
T28B0 001:327 JLINK_ClrBPEx(BPHandle = 0x00000007)  returns 0x00 (0000ms, 0775ms total)
T28B0 001:327 JLINK_ReadReg(R0)  returns 0x00000000 (0000ms, 0775ms total)
T28B0 001:328 JLINK_WriteMem(0x20000164, 0x0400 Bytes, ...) - Data: 20 43 90 60 D0 6A 20 F4 70 00 0C 7C 64 1E E4 B2 ... -- CPU_WriteMem(1024 bytes @ 0x20000164)  returns 0x400 (0004ms, 0780ms total)
T28B0 001:332 JLINK_WriteReg(R0, 0x08000C00)  returns 0x00 (0000ms, 0780ms total)
T28B0 001:332 JLINK_WriteReg(R1, 0x00000400)  returns 0x00 (0000ms, 0780ms total)
T28B0 001:332 JLINK_WriteReg(R2, 0x20000164)  returns 0x00 (0000ms, 0780ms total)
T28B0 001:332 JLINK_WriteReg(R3, 0x00000000)  returns 0x00 (0001ms, 0781ms total)
T28B0 001:333 JLINK_WriteReg(R4, 0x00000000)  returns 0x00 (0000ms, 0781ms total)
T28B0 001:333 JLINK_WriteReg(R5, 0x00000000)  returns 0x00 (0000ms, 0781ms total)
T28B0 001:333 JLINK_WriteReg(R6, 0x00000000)  returns 0x00 (0000ms, 0781ms total)
T28B0 001:333 JLINK_WriteReg(R7, 0x00000000)  returns 0x00 (0000ms, 0781ms total)
T28B0 001:333 JLINK_WriteReg(R8, 0x00000000)  returns 0x00 (0000ms, 0781ms total)
T28B0 001:333 JLINK_WriteReg(R9, 0x20000160)  returns 0x00 (0001ms, 0782ms total)
T28B0 001:334 JLINK_WriteReg(R10, 0x00000000)  returns 0x00 (0000ms, 0782ms total)
T28B0 001:334 JLINK_WriteReg(R11, 0x00000000)  returns 0x00 (0000ms, 0782ms total)
T28B0 001:334 JLINK_WriteReg(R12, 0x00000000)  returns 0x00 (0000ms, 0782ms total)
T28B0 001:334 JLINK_WriteReg(R13 (SP), 0x20001000)  returns 0x00 (0000ms, 0782ms total)
T28B0 001:334 JLINK_WriteReg(R14, 0x20000001)  returns 0x00 (0000ms, 0782ms total)
T28B0 001:334 JLINK_WriteReg(R15 (PC), 0x200000F4)  returns 0x00 (0000ms, 0782ms total)
T28B0 001:334 JLINK_WriteReg(XPSR, 0x01000000)  returns 0x00 (0001ms, 0783ms total)
T28B0 001:335 JLINK_WriteReg(MSP, 0x20001000)  returns 0x00 (0000ms, 0783ms total)
T28B0 001:335 JLINK_WriteReg(PSP, 0x20001000)  returns 0x00 (0000ms, 0783ms total)
T28B0 001:335 JLINK_WriteReg(CFBP, 0x00000000)  returns 0x00 (0000ms, 0783ms total)
T28B0 001:335 JLINK_SetBPEx(Addr = 0x20000000, Type = 0xFFFFFFF2)  returns 0x00000008 (0000ms, 0783ms total)
T28B0 001:335 JLINK_Go() -- CPU_ReadMem(4 bytes @ 0xE0001000) (0001ms, 0784ms total)
T28B0 001:336 JLINK_IsHalted()  returns FALSE (0001ms, 0785ms total)
T28B0 001:359 JLINK_IsHalted()  returns FALSE (0000ms, 0784ms total)
T28B0 001:361 JLINK_IsHalted()  returns FALSE (0000ms, 0784ms total)
T28B0 001:363 JLINK_IsHalted()  returns FALSE (0000ms, 0784ms total)
T28B0 001:365 JLINK_IsHalted()  returns FALSE (0001ms, 0785ms total)
T28B0 001:368 JLINK_IsHalted() -- CPU_ReadMem(2 bytes @ 0x20000000)  returns TRUE (0002ms, 0786ms total)
T28B0 001:370 JLINK_ReadReg(R15 (PC))  returns 0x20000000 (0000ms, 0784ms total)
T28B0 001:370 JLINK_ClrBPEx(BPHandle = 0x00000008)  returns 0x00 (0000ms, 0784ms total)
T28B0 001:370 JLINK_ReadReg(R0)  returns 0x00000000 (0001ms, 0785ms total)
T28B0 001:371 JLINK_WriteMem(0x20000164, 0x0400 Bytes, ...) - Data: 5F FF 07 E0 53 A0 02 F0 5B FF 03 E0 5C A0 02 F0 ... -- CPU_WriteMem(1024 bytes @ 0x20000164)  returns 0x400 (0004ms, 0789ms total)
T28B0 001:375 JLINK_WriteReg(R0, 0x08001000)  returns 0x00 (0000ms, 0789ms total)
T28B0 001:375 JLINK_WriteReg(R1, 0x00000400)  returns 0x00 (0000ms, 0789ms total)
T28B0 001:375 JLINK_WriteReg(R2, 0x20000164)  returns 0x00 (0000ms, 0789ms total)
T28B0 001:375 JLINK_WriteReg(R3, 0x00000000)  returns 0x00 (0000ms, 0789ms total)
T28B0 001:375 JLINK_WriteReg(R4, 0x00000000)  returns 0x00 (0001ms, 0790ms total)
T28B0 001:376 JLINK_WriteReg(R5, 0x00000000)  returns 0x00 (0000ms, 0790ms total)
T28B0 001:376 JLINK_WriteReg(R6, 0x00000000)  returns 0x00 (0000ms, 0790ms total)
T28B0 001:376 JLINK_WriteReg(R7, 0x00000000)  returns 0x00 (0000ms, 0790ms total)
T28B0 001:376 JLINK_WriteReg(R8, 0x00000000)  returns 0x00 (0000ms, 0790ms total)
T28B0 001:376 JLINK_WriteReg(R9, 0x20000160)  returns 0x00 (0000ms, 0790ms total)
T28B0 001:376 JLINK_WriteReg(R10, 0x00000000)  returns 0x00 (0000ms, 0790ms total)
T28B0 001:376 JLINK_WriteReg(R11, 0x00000000)  returns 0x00 (0001ms, 0791ms total)
T28B0 001:377 JLINK_WriteReg(R12, 0x00000000)  returns 0x00 (0000ms, 0791ms total)
T28B0 001:377 JLINK_WriteReg(R13 (SP), 0x20001000)  returns 0x00 (0000ms, 0791ms total)
T28B0 001:377 JLINK_WriteReg(R14, 0x20000001)  returns 0x00 (0000ms, 0791ms total)
T28B0 001:377 JLINK_WriteReg(R15 (PC), 0x200000F4)  returns 0x00 (0000ms, 0791ms total)
T28B0 001:377 JLINK_WriteReg(XPSR, 0x01000000)  returns 0x00 (0000ms, 0791ms total)
T28B0 001:377 JLINK_WriteReg(MSP, 0x20001000)  returns 0x00 (0000ms, 0791ms total)
T28B0 001:377 JLINK_WriteReg(PSP, 0x20001000)  returns 0x00 (0001ms, 0792ms total)
T28B0 001:378 JLINK_WriteReg(CFBP, 0x00000000)  returns 0x00 (0000ms, 0792ms total)
T28B0 001:378 JLINK_SetBPEx(Addr = 0x20000000, Type = 0xFFFFFFF2)  returns 0x00000009 (0000ms, 0792ms total)
T28B0 001:378 JLINK_Go() -- CPU_ReadMem(4 bytes @ 0xE0001000) (0001ms, 0793ms total)
T28B0 001:379 JLINK_IsHalted()  returns FALSE (0001ms, 0794ms total)
T28B0 001:418 JLINK_IsHalted() -- CPU_ReadMem(2 bytes @ 0x20000000)  returns TRUE (0002ms, 0795ms total)
T28B0 001:420 JLINK_ReadReg(R15 (PC))  returns 0x20000000 (0000ms, 0793ms total)
T28B0 001:420 JLINK_ClrBPEx(BPHandle = 0x00000009)  returns 0x00 (0000ms, 0793ms total)
T28B0 001:420 JLINK_ReadReg(R0)  returns 0x00000000 (0000ms, 0793ms total)
T28B0 001:421 JLINK_WriteMem(0x20000164, 0x0400 Bytes, ...) - Data: 68 1C 90 B1 64 1C 06 E0 14 F8 01 2B 40 46 08 F1 ... -- CPU_WriteMem(1024 bytes @ 0x20000164)  returns 0x400 (0004ms, 0797ms total)
T28B0 001:425 JLINK_WriteReg(R0, 0x08001400)  returns 0x00 (0000ms, 0797ms total)
T28B0 001:425 JLINK_WriteReg(R1, 0x00000400)  returns 0x00 (0000ms, 0797ms total)
T28B0 001:425 JLINK_WriteReg(R2, 0x20000164)  returns 0x00 (0000ms, 0797ms total)
T28B0 001:425 JLINK_WriteReg(R3, 0x00000000)  returns 0x00 (0001ms, 0798ms total)
T28B0 001:426 JLINK_WriteReg(R4, 0x00000000)  returns 0x00 (0000ms, 0798ms total)
T28B0 001:426 JLINK_WriteReg(R5, 0x00000000)  returns 0x00 (0000ms, 0798ms total)
T28B0 001:426 JLINK_WriteReg(R6, 0x00000000)  returns 0x00 (0000ms, 0798ms total)
T28B0 001:426 JLINK_WriteReg(R7, 0x00000000)  returns 0x00 (0000ms, 0798ms total)
T28B0 001:426 JLINK_WriteReg(R8, 0x00000000)  returns 0x00 (0000ms, 0798ms total)
T28B0 001:426 JLINK_WriteReg(R9, 0x20000160)  returns 0x00 (0000ms, 0798ms total)
T28B0 001:426 JLINK_WriteReg(R10, 0x00000000)  returns 0x00 (0001ms, 0799ms total)
T28B0 001:427 JLINK_WriteReg(R11, 0x00000000)  returns 0x00 (0000ms, 0799ms total)
T28B0 001:427 JLINK_WriteReg(R12, 0x00000000)  returns 0x00 (0000ms, 0799ms total)
T28B0 001:427 JLINK_WriteReg(R13 (SP), 0x20001000)  returns 0x00 (0000ms, 0799ms total)
T28B0 001:427 JLINK_WriteReg(R14, 0x20000001)  returns 0x00 (0000ms, 0799ms total)
T28B0 001:427 JLINK_WriteReg(R15 (PC), 0x200000F4)  returns 0x00 (0000ms, 0799ms total)
T28B0 001:427 JLINK_WriteReg(XPSR, 0x01000000)  returns 0x00 (0000ms, 0799ms total)
T28B0 001:427 JLINK_WriteReg(MSP, 0x20001000)  returns 0x00 (0001ms, 0800ms total)
T28B0 001:428 JLINK_WriteReg(PSP, 0x20001000)  returns 0x00 (0000ms, 0800ms total)
T28B0 001:428 JLINK_WriteReg(CFBP, 0x00000000)  returns 0x00 (0000ms, 0800ms total)
T28B0 001:428 JLINK_SetBPEx(Addr = 0x20000000, Type = 0xFFFFFFF2)  returns 0x0000000A (0000ms, 0800ms total)
T28B0 001:428 JLINK_Go() -- CPU_ReadMem(4 bytes @ 0xE0001000) (0001ms, 0801ms total)
T28B0 001:429 JLINK_IsHalted()  returns FALSE (0001ms, 0802ms total)
T28B0 001:453 JLINK_IsHalted()  returns FALSE (0000ms, 0801ms total)
T28B0 001:455 JLINK_IsHalted()  returns FALSE (0000ms, 0801ms total)
T28B0 001:458 JLINK_IsHalted()  returns FALSE (0000ms, 0801ms total)
T28B0 001:461 JLINK_IsHalted() -- CPU_ReadMem(2 bytes @ 0x20000000)  returns TRUE (0002ms, 0803ms total)
T28B0 001:464 JLINK_ReadReg(R15 (PC))  returns 0x20000000 (0000ms, 0801ms total)
T28B0 001:464 JLINK_ClrBPEx(BPHandle = 0x0000000A)  returns 0x00 (0000ms, 0801ms total)
T28B0 001:465 JLINK_ReadReg(R0)  returns 0x00000000 (0000ms, 0802ms total)
T28B0 001:468 JLINK_WriteMem(0x20000164, 0x0400 Bytes, ...) - Data: 08 39 49 68 41 F0 0F 01 47 4A 08 3A 51 60 8A E0 ... -- CPU_WriteMem(1024 bytes @ 0x20000164)  returns 0x400 (0004ms, 0806ms total)
T28B0 001:472 JLINK_WriteReg(R0, 0x08001800)  returns 0x00 (0000ms, 0806ms total)
T28B0 001:472 JLINK_WriteReg(R1, 0x00000400)  returns 0x00 (0000ms, 0806ms total)
T28B0 001:472 JLINK_WriteReg(R2, 0x20000164)  returns 0x00 (0000ms, 0806ms total)
T28B0 001:472 JLINK_WriteReg(R3, 0x00000000)  returns 0x00 (0000ms, 0806ms total)
T28B0 001:472 JLINK_WriteReg(R4, 0x00000000)  returns 0x00 (0000ms, 0806ms total)
T28B0 001:472 JLINK_WriteReg(R5, 0x00000000)  returns 0x00 (0000ms, 0806ms total)
T28B0 001:473 JLINK_WriteReg(R6, 0x00000000)  returns 0x00 (0000ms, 0807ms total)
T28B0 001:473 JLINK_WriteReg(R7, 0x00000000)  returns 0x00 (0000ms, 0807ms total)
T28B0 001:473 JLINK_WriteReg(R8, 0x00000000)  returns 0x00 (0000ms, 0807ms total)
T28B0 001:473 JLINK_WriteReg(R9, 0x20000160)  returns 0x00 (0000ms, 0807ms total)
T28B0 001:473 JLINK_WriteReg(R10, 0x00000000)  returns 0x00 (0000ms, 0807ms total)
T28B0 001:473 JLINK_WriteReg(R11, 0x00000000)  returns 0x00 (0000ms, 0807ms total)
T28B0 001:473 JLINK_WriteReg(R12, 0x00000000)  returns 0x00 (0001ms, 0808ms total)
T28B0 001:474 JLINK_WriteReg(R13 (SP), 0x20001000)  returns 0x00 (0000ms, 0808ms total)
T28B0 001:474 JLINK_WriteReg(R14, 0x20000001)  returns 0x00 (0000ms, 0808ms total)
T28B0 001:474 JLINK_WriteReg(R15 (PC), 0x200000F4)  returns 0x00 (0000ms, 0808ms total)
T28B0 001:474 JLINK_WriteReg(XPSR, 0x01000000)  returns 0x00 (0000ms, 0808ms total)
T28B0 001:474 JLINK_WriteReg(MSP, 0x20001000)  returns 0x00 (0000ms, 0808ms total)
T28B0 001:474 JLINK_WriteReg(PSP, 0x20001000)  returns 0x00 (0000ms, 0808ms total)
T28B0 001:474 JLINK_WriteReg(CFBP, 0x00000000)  returns 0x00 (0001ms, 0809ms total)
T28B0 001:475 JLINK_SetBPEx(Addr = 0x20000000, Type = 0xFFFFFFF2)  returns 0x0000000B (0000ms, 0809ms total)
T28B0 001:475 JLINK_Go() -- CPU_ReadMem(4 bytes @ 0xE0001000) (0001ms, 0810ms total)
T28B0 001:476 JLINK_IsHalted()  returns FALSE (0000ms, 0810ms total)
T28B0 001:499 JLINK_IsHalted()  returns FALSE (0000ms, 0810ms total)
T28B0 001:501 JLINK_IsHalted()  returns FALSE (0000ms, 0810ms total)
T28B0 001:504 JLINK_IsHalted()  returns FALSE (0000ms, 0810ms total)
T28B0 001:506 JLINK_IsHalted()  returns FALSE (0000ms, 0810ms total)
T28B0 001:508 JLINK_IsHalted() -- CPU_ReadMem(2 bytes @ 0x20000000)  returns TRUE (0002ms, 0812ms total)
T28B0 001:510 JLINK_ReadReg(R15 (PC))  returns 0x20000000 (0000ms, 0810ms total)
T28B0 001:510 JLINK_ClrBPEx(BPHandle = 0x0000000B)  returns 0x00 (0000ms, 0810ms total)
T28B0 001:510 JLINK_ReadReg(R0)  returns 0x00000000 (0000ms, 0810ms total)
T28B0 001:511 JLINK_WriteMem(0x20000164, 0x0400 Bytes, ...) - Data: 04 00 10 20 8D F8 05 00 01 20 8D F8 06 00 68 46 ... -- CPU_WriteMem(1024 bytes @ 0x20000164)  returns 0x400 (0004ms, 0814ms total)
T28B0 001:515 JLINK_WriteReg(R0, 0x08001C00)  returns 0x00 (0000ms, 0814ms total)
T28B0 001:515 JLINK_WriteReg(R1, 0x00000400)  returns 0x00 (0000ms, 0814ms total)
T28B0 001:515 JLINK_WriteReg(R2, 0x20000164)  returns 0x00 (0000ms, 0814ms total)
T28B0 001:516 JLINK_WriteReg(R3, 0x00000000)  returns 0x00 (0000ms, 0815ms total)
T28B0 001:516 JLINK_WriteReg(R4, 0x00000000)  returns 0x00 (0000ms, 0815ms total)
T28B0 001:516 JLINK_WriteReg(R5, 0x00000000)  returns 0x00 (0000ms, 0815ms total)
T28B0 001:516 JLINK_WriteReg(R6, 0x00000000)  returns 0x00 (0000ms, 0815ms total)
T28B0 001:516 JLINK_WriteReg(R7, 0x00000000)  returns 0x00 (0000ms, 0815ms total)
T28B0 001:516 JLINK_WriteReg(R8, 0x00000000)  returns 0x00 (0000ms, 0815ms total)
T28B0 001:517 JLINK_WriteReg(R9, 0x20000160)  returns 0x00 (0000ms, 0816ms total)
T28B0 001:517 JLINK_WriteReg(R10, 0x00000000)  returns 0x00 (0000ms, 0816ms total)
T28B0 001:517 JLINK_WriteReg(R11, 0x00000000)  returns 0x00 (0000ms, 0816ms total)
T28B0 001:517 JLINK_WriteReg(R12, 0x00000000)  returns 0x00 (0000ms, 0816ms total)
T28B0 001:517 JLINK_WriteReg(R13 (SP), 0x20001000)  returns 0x00 (0000ms, 0816ms total)
T28B0 001:517 JLINK_WriteReg(R14, 0x20000001)  returns 0x00 (0000ms, 0816ms total)
T28B0 001:517 JLINK_WriteReg(R15 (PC), 0x200000F4)  returns 0x00 (0000ms, 0816ms total)
T28B0 001:518 JLINK_WriteReg(XPSR, 0x01000000)  returns 0x00 (0000ms, 0817ms total)
T28B0 001:518 JLINK_WriteReg(MSP, 0x20001000)  returns 0x00 (0000ms, 0817ms total)
T28B0 001:518 JLINK_WriteReg(PSP, 0x20001000)  returns 0x00 (0000ms, 0817ms total)
T28B0 001:518 JLINK_WriteReg(CFBP, 0x00000000)  returns 0x00 (0000ms, 0817ms total)
T28B0 001:518 JLINK_SetBPEx(Addr = 0x20000000, Type = 0xFFFFFFF2)  returns 0x0000000C (0000ms, 0817ms total)
T28B0 001:518 JLINK_Go() -- CPU_ReadMem(4 bytes @ 0xE0001000) (0001ms, 0818ms total)
T28B0 001:520 JLINK_IsHalted()  returns FALSE (0000ms, 0819ms total)
T28B0 001:559 JLINK_IsHalted() -- CPU_ReadMem(2 bytes @ 0x20000000)  returns TRUE (0002ms, 0821ms total)
T28B0 001:561 JLINK_ReadReg(R15 (PC))  returns 0x20000000 (0000ms, 0819ms total)
T28B0 001:561 JLINK_ClrBPEx(BPHandle = 0x0000000C)  returns 0x00 (0000ms, 0819ms total)
T28B0 001:561 JLINK_ReadReg(R0)  returns 0x00000000 (0000ms, 0819ms total)
T28B0 001:562 JLINK_WriteMem(0x20000164, 0x0400 Bytes, ...) - Data: C4 F3 07 40 FF F7 F1 FF C4 F3 07 20 FF F7 ED FF ... -- CPU_WriteMem(1024 bytes @ 0x20000164)  returns 0x400 (0004ms, 0823ms total)
T28B0 001:566 JLINK_WriteReg(R0, 0x08002000)  returns 0x00 (0000ms, 0823ms total)
T28B0 001:566 JLINK_WriteReg(R1, 0x00000400)  returns 0x00 (0001ms, 0824ms total)
T28B0 001:567 JLINK_WriteReg(R2, 0x20000164)  returns 0x00 (0000ms, 0824ms total)
T28B0 001:567 JLINK_WriteReg(R3, 0x00000000)  returns 0x00 (0001ms, 0825ms total)
T28B0 001:568 JLINK_WriteReg(R4, 0x00000000)  returns 0x00 (0000ms, 0825ms total)
T28B0 001:568 JLINK_WriteReg(R5, 0x00000000)  returns 0x00 (0001ms, 0826ms total)
T28B0 001:569 JLINK_WriteReg(R6, 0x00000000)  returns 0x00 (0000ms, 0826ms total)
T28B0 001:569 JLINK_WriteReg(R7, 0x00000000)  returns 0x00 (0001ms, 0827ms total)
T28B0 001:570 JLINK_WriteReg(R8, 0x00000000)  returns 0x00 (0000ms, 0827ms total)
T28B0 001:570 JLINK_WriteReg(R9, 0x20000160)  returns 0x00 (0000ms, 0827ms total)
T28B0 001:570 JLINK_WriteReg(R10, 0x00000000)  returns 0x00 (0001ms, 0828ms total)
T28B0 001:571 JLINK_WriteReg(R11, 0x00000000)  returns 0x00 (0000ms, 0828ms total)
T28B0 001:571 JLINK_WriteReg(R12, 0x00000000)  returns 0x00 (0000ms, 0828ms total)
T28B0 001:572 JLINK_WriteReg(R13 (SP), 0x20001000)  returns 0x00 (0000ms, 0829ms total)
T28B0 001:572 JLINK_WriteReg(R14, 0x20000001)  returns 0x00 (0000ms, 0829ms total)
T28B0 001:572 JLINK_WriteReg(R15 (PC), 0x200000F4)  returns 0x00 (0000ms, 0829ms total)
T28B0 001:573 JLINK_WriteReg(XPSR, 0x01000000)  returns 0x00 (0000ms, 0830ms total)
T28B0 001:573 JLINK_WriteReg(MSP, 0x20001000)  returns 0x00 (0000ms, 0830ms total)
T28B0 001:573 JLINK_WriteReg(PSP, 0x20001000)  returns 0x00 (0001ms, 0831ms total)
T28B0 001:574 JLINK_WriteReg(CFBP, 0x00000000)  returns 0x00 (0000ms, 0831ms total)
T28B0 001:574 JLINK_SetBPEx(Addr = 0x20000000, Type = 0xFFFFFFF2)  returns 0x0000000D (0000ms, 0831ms total)
T28B0 001:574 JLINK_Go() -- CPU_ReadMem(4 bytes @ 0xE0001000) (0002ms, 0833ms total)
T28B0 001:576 JLINK_IsHalted()  returns FALSE (0000ms, 0833ms total)
T28B0 001:586 JLINK_IsHalted()  returns FALSE (0000ms, 0833ms total)
T28B0 001:588 JLINK_IsHalted()  returns FALSE (0000ms, 0833ms total)
T28B0 001:615 JLINK_IsHalted() -- CPU_ReadMem(2 bytes @ 0x20000000)  returns TRUE (0002ms, 0835ms total)
T28B0 001:617 JLINK_ReadReg(R15 (PC))  returns 0x20000000 (0000ms, 0833ms total)
T28B0 001:617 JLINK_ClrBPEx(BPHandle = 0x0000000D)  returns 0x00 (0000ms, 0833ms total)
T28B0 001:617 JLINK_ReadReg(R0)  returns 0x00000000 (0000ms, 0833ms total)
T28B0 001:618 JLINK_WriteMem(0x20000164, 0x0400 Bytes, ...) - Data: 88 18 42 46 49 46 FD F7 E1 FE 60 68 40 44 60 60 ... -- CPU_WriteMem(1024 bytes @ 0x20000164)  returns 0x400 (0004ms, 0837ms total)
T28B0 001:622 JLINK_WriteReg(R0, 0x08002400)  returns 0x00 (0000ms, 0837ms total)
T28B0 001:622 JLINK_WriteReg(R1, 0x00000400)  returns 0x00 (0000ms, 0837ms total)
T28B0 001:622 JLINK_WriteReg(R2, 0x20000164)  returns 0x00 (0001ms, 0838ms total)
T28B0 001:623 JLINK_WriteReg(R3, 0x00000000)  returns 0x00 (0000ms, 0838ms total)
T28B0 001:623 JLINK_WriteReg(R4, 0x00000000)  returns 0x00 (0000ms, 0838ms total)
T28B0 001:623 JLINK_WriteReg(R5, 0x00000000)  returns 0x00 (0000ms, 0838ms total)
T28B0 001:623 JLINK_WriteReg(R6, 0x00000000)  returns 0x00 (0000ms, 0838ms total)
T28B0 001:623 JLINK_WriteReg(R7, 0x00000000)  returns 0x00 (0000ms, 0838ms total)
T28B0 001:623 JLINK_WriteReg(R8, 0x00000000)  returns 0x00 (0000ms, 0838ms total)
T28B0 001:623 JLINK_WriteReg(R9, 0x20000160)  returns 0x00 (0001ms, 0839ms total)
T28B0 001:624 JLINK_WriteReg(R10, 0x00000000)  returns 0x00 (0000ms, 0839ms total)
T28B0 001:624 JLINK_WriteReg(R11, 0x00000000)  returns 0x00 (0000ms, 0839ms total)
T28B0 001:624 JLINK_WriteReg(R12, 0x00000000)  returns 0x00 (0000ms, 0839ms total)
T28B0 001:624 JLINK_WriteReg(R13 (SP), 0x20001000)  returns 0x00 (0000ms, 0839ms total)
T28B0 001:624 JLINK_WriteReg(R14, 0x20000001)  returns 0x00 (0000ms, 0839ms total)
T28B0 001:624 JLINK_WriteReg(R15 (PC), 0x200000F4)  returns 0x00 (0000ms, 0839ms total)
T28B0 001:624 JLINK_WriteReg(XPSR, 0x01000000)  returns 0x00 (0001ms, 0840ms total)
T28B0 001:625 JLINK_WriteReg(MSP, 0x20001000)  returns 0x00 (0000ms, 0840ms total)
T28B0 001:625 JLINK_WriteReg(PSP, 0x20001000)  returns 0x00 (0000ms, 0840ms total)
T28B0 001:625 JLINK_WriteReg(CFBP, 0x00000000)  returns 0x00 (0000ms, 0840ms total)
T28B0 001:625 JLINK_SetBPEx(Addr = 0x20000000, Type = 0xFFFFFFF2)  returns 0x0000000E (0000ms, 0840ms total)
T28B0 001:625 JLINK_Go() -- CPU_ReadMem(4 bytes @ 0xE0001000) (0001ms, 0841ms total)
T28B0 001:626 JLINK_IsHalted()  returns FALSE (0001ms, 0842ms total)
T28B0 001:650 JLINK_IsHalted()  returns FALSE (0000ms, 0841ms total)
T28B0 001:665 JLINK_IsHalted() -- CPU_ReadMem(2 bytes @ 0x20000000)  returns TRUE (0002ms, 0843ms total)
T28B0 001:667 JLINK_ReadReg(R15 (PC))  returns 0x20000000 (0000ms, 0841ms total)
T28B0 001:667 JLINK_ClrBPEx(BPHandle = 0x0000000E)  returns 0x00 (0000ms, 0841ms total)
T28B0 001:667 JLINK_ReadReg(R0)  returns 0x00000000 (0000ms, 0841ms total)
T28B0 001:669 JLINK_WriteMem(0x20000164, 0x0400 Bytes, ...) - Data: 00 25 24 E0 57 F8 25 00 FD F7 CC FC 06 46 C6 F3 ... -- CPU_WriteMem(1024 bytes @ 0x20000164)  returns 0x400 (0004ms, 0845ms total)
T28B0 001:673 JLINK_WriteReg(R0, 0x08002800)  returns 0x00 (0000ms, 0845ms total)
T28B0 001:673 JLINK_WriteReg(R1, 0x00000400)  returns 0x00 (0000ms, 0845ms total)
T28B0 001:673 JLINK_WriteReg(R2, 0x20000164)  returns 0x00 (0000ms, 0845ms total)
T28B0 001:673 JLINK_WriteReg(R3, 0x00000000)  returns 0x00 (0000ms, 0845ms total)
T28B0 001:673 JLINK_WriteReg(R4, 0x00000000)  returns 0x00 (0000ms, 0845ms total)
T28B0 001:673 JLINK_WriteReg(R5, 0x00000000)  returns 0x00 (0001ms, 0846ms total)
T28B0 001:674 JLINK_WriteReg(R6, 0x00000000)  returns 0x00 (0000ms, 0846ms total)
T28B0 001:674 JLINK_WriteReg(R7, 0x00000000)  returns 0x00 (0000ms, 0846ms total)
T28B0 001:674 JLINK_WriteReg(R8, 0x00000000)  returns 0x00 (0000ms, 0846ms total)
T28B0 001:674 JLINK_WriteReg(R9, 0x20000160)  returns 0x00 (0000ms, 0846ms total)
T28B0 001:674 JLINK_WriteReg(R10, 0x00000000)  returns 0x00 (0000ms, 0846ms total)
T28B0 001:674 JLINK_WriteReg(R11, 0x00000000)  returns 0x00 (0001ms, 0847ms total)
T28B0 001:675 JLINK_WriteReg(R12, 0x00000000)  returns 0x00 (0000ms, 0847ms total)
T28B0 001:675 JLINK_WriteReg(R13 (SP), 0x20001000)  returns 0x00 (0000ms, 0847ms total)
T28B0 001:675 JLINK_WriteReg(R14, 0x20000001)  returns 0x00 (0000ms, 0847ms total)
T28B0 001:675 JLINK_WriteReg(R15 (PC), 0x200000F4)  returns 0x00 (0000ms, 0847ms total)
T28B0 001:675 JLINK_WriteReg(XPSR, 0x01000000)  returns 0x00 (0000ms, 0847ms total)
T28B0 001:675 JLINK_WriteReg(MSP, 0x20001000)  returns 0x00 (0000ms, 0847ms total)
T28B0 001:675 JLINK_WriteReg(PSP, 0x20001000)  returns 0x00 (0001ms, 0848ms total)
T28B0 001:676 JLINK_WriteReg(CFBP, 0x00000000)  returns 0x00 (0000ms, 0848ms total)
T28B0 001:676 JLINK_SetBPEx(Addr = 0x20000000, Type = 0xFFFFFFF2)  returns 0x0000000F (0000ms, 0848ms total)
T28B0 001:676 JLINK_Go() -- CPU_ReadMem(4 bytes @ 0xE0001000) (0001ms, 0849ms total)
T28B0 001:677 JLINK_IsHalted()  returns FALSE (0001ms, 0850ms total)
T28B0 001:684 JLINK_IsHalted()  returns FALSE (0000ms, 0849ms total)
T28B0 001:686 JLINK_IsHalted()  returns FALSE (0000ms, 0849ms total)
T28B0 001:688 JLINK_IsHalted()  returns FALSE (0000ms, 0849ms total)
T28B0 001:690 JLINK_IsHalted()  returns FALSE (0000ms, 0849ms total)
T28B0 001:692 JLINK_IsHalted()  returns FALSE (0000ms, 0849ms total)
T28B0 001:694 JLINK_IsHalted()  returns FALSE (0000ms, 0849ms total)
T28B0 001:696 JLINK_IsHalted()  returns FALSE (0000ms, 0849ms total)
T28B0 001:698 JLINK_IsHalted()  returns FALSE (0000ms, 0849ms total)
T28B0 001:700 JLINK_IsHalted()  returns FALSE (0000ms, 0849ms total)
T28B0 001:725 JLINK_IsHalted() -- CPU_ReadMem(2 bytes @ 0x20000000)  returns TRUE (0002ms, 0851ms total)
T28B0 001:727 JLINK_ReadReg(R15 (PC))  returns 0x20000000 (0000ms, 0849ms total)
T28B0 001:727 JLINK_ClrBPEx(BPHandle = 0x0000000F)  returns 0x00 (0000ms, 0849ms total)
T28B0 001:727 JLINK_ReadReg(R0)  returns 0x00000000 (0000ms, 0849ms total)
T28B0 001:728 JLINK_WriteMem(0x20000164, 0x0400 Bytes, ...) - Data: 02 28 01 D0 01 20 70 47 88 78 20 B9 C8 78 0A 28 ... -- CPU_WriteMem(1024 bytes @ 0x20000164)  returns 0x400 (0004ms, 0853ms total)
T28B0 001:732 JLINK_WriteReg(R0, 0x08002C00)  returns 0x00 (0000ms, 0853ms total)
T28B0 001:732 JLINK_WriteReg(R1, 0x00000400)  returns 0x00 (0000ms, 0853ms total)
T28B0 001:732 JLINK_WriteReg(R2, 0x20000164)  returns 0x00 (0000ms, 0853ms total)
T28B0 001:732 JLINK_WriteReg(R3, 0x00000000)  returns 0x00 (0000ms, 0853ms total)
T28B0 001:732 JLINK_WriteReg(R4, 0x00000000)  returns 0x00 (0000ms, 0853ms total)
T28B0 001:732 JLINK_WriteReg(R5, 0x00000000)  returns 0x00 (0000ms, 0853ms total)
T28B0 001:732 JLINK_WriteReg(R6, 0x00000000)  returns 0x00 (0001ms, 0854ms total)
T28B0 001:733 JLINK_WriteReg(R7, 0x00000000)  returns 0x00 (0000ms, 0854ms total)
T28B0 001:733 JLINK_WriteReg(R8, 0x00000000)  returns 0x00 (0000ms, 0854ms total)
T28B0 001:733 JLINK_WriteReg(R9, 0x20000160)  returns 0x00 (0000ms, 0854ms total)
T28B0 001:733 JLINK_WriteReg(R10, 0x00000000)  returns 0x00 (0000ms, 0854ms total)
T28B0 001:733 JLINK_WriteReg(R11, 0x00000000)  returns 0x00 (0000ms, 0854ms total)
T28B0 001:733 JLINK_WriteReg(R12, 0x00000000)  returns 0x00 (0000ms, 0854ms total)
T28B0 001:734 JLINK_WriteReg(R13 (SP), 0x20001000)  returns 0x00 (0000ms, 0855ms total)
T28B0 001:734 JLINK_WriteReg(R14, 0x20000001)  returns 0x00 (0000ms, 0855ms total)
T28B0 001:734 JLINK_WriteReg(R15 (PC), 0x200000F4)  returns 0x00 (0000ms, 0855ms total)
T28B0 001:734 JLINK_WriteReg(XPSR, 0x01000000)  returns 0x00 (0000ms, 0855ms total)
T28B0 001:734 JLINK_WriteReg(MSP, 0x20001000)  returns 0x00 (0000ms, 0855ms total)
T28B0 001:734 JLINK_WriteReg(PSP, 0x20001000)  returns 0x00 (0000ms, 0855ms total)
T28B0 001:734 JLINK_WriteReg(CFBP, 0x00000000)  returns 0x00 (0001ms, 0856ms total)
T28B0 001:735 JLINK_SetBPEx(Addr = 0x20000000, Type = 0xFFFFFFF2)  returns 0x00000010 (0000ms, 0856ms total)
T28B0 001:735 JLINK_Go() -- CPU_ReadMem(4 bytes @ 0xE0001000) (0001ms, 0857ms total)
T28B0 001:736 JLINK_IsHalted()  returns FALSE (0000ms, 0857ms total)
T28B0 001:759 JLINK_IsHalted()  returns FALSE (0000ms, 0857ms total)
T28B0 001:761 JLINK_IsHalted()  returns FALSE (0000ms, 0857ms total)
T28B0 001:781 JLINK_IsHalted() -- CPU_ReadMem(2 bytes @ 0x20000000)  returns TRUE (0002ms, 0859ms total)
T28B0 001:783 JLINK_ReadReg(R15 (PC))  returns 0x20000000 (0000ms, 0857ms total)
T28B0 001:783 JLINK_ClrBPEx(BPHandle = 0x00000010)  returns 0x00 (0000ms, 0857ms total)
T28B0 001:783 JLINK_ReadReg(R0)  returns 0x00000000 (0000ms, 0857ms total)
T28B0 001:784 JLINK_WriteMem(0x20000164, 0x0400 Bytes, ...) - Data: 02 46 00 20 13 89 0B 40 0B B1 01 20 00 E0 00 20 ... -- CPU_WriteMem(1024 bytes @ 0x20000164)  returns 0x400 (0004ms, 0861ms total)
T28B0 001:788 JLINK_WriteReg(R0, 0x08003000)  returns 0x00 (0000ms, 0861ms total)
T28B0 001:788 JLINK_WriteReg(R1, 0x00000400)  returns 0x00 (0000ms, 0861ms total)
T28B0 001:788 JLINK_WriteReg(R2, 0x20000164)  returns 0x00 (0000ms, 0861ms total)
T28B0 001:788 JLINK_WriteReg(R3, 0x00000000)  returns 0x00 (0000ms, 0861ms total)
T28B0 001:788 JLINK_WriteReg(R4, 0x00000000)  returns 0x00 (0000ms, 0861ms total)
T28B0 001:789 JLINK_WriteReg(R5, 0x00000000)  returns 0x00 (0000ms, 0862ms total)
T28B0 001:789 JLINK_WriteReg(R6, 0x00000000)  returns 0x00 (0000ms, 0862ms total)
T28B0 001:789 JLINK_WriteReg(R7, 0x00000000)  returns 0x00 (0000ms, 0862ms total)
T28B0 001:789 JLINK_WriteReg(R8, 0x00000000)  returns 0x00 (0000ms, 0862ms total)
T28B0 001:789 JLINK_WriteReg(R9, 0x20000160)  returns 0x00 (0000ms, 0862ms total)
